!Created with skrf (http://scikit-rf.org).
# Hz S RI R 50.0 
!freq ReS11 ImS11 ReS21 ImS21 ReS12 ImS12 ReS22 ImS22
3000000000.0 0.08644769131876873 -0.1990913812742212 0.6695276215630568 0.5836865325310985 0.6695276215630567 0.5836865325310985 -0.42788530092372246 -0.13830351796472584
3010000000.0 -6.840727817010221 -1.7411330785398818 -0.5843868953935553 -3.3341955198634006 -0.5843868953935552 -3.334195519863402 -0.24381027598756294 -1.8066138861446195
3020000000.0 -0.9711111331544382 0.31665990180386683 0.8551376663363472 -0.7570251788659871 0.8551376663363475 -0.7570251788659873 -0.3972982972157174 -0.013888906745172513
3030000000.0 -0.06568498001158862 0.06442090425738667 0.41228754769159204 0.18837092393252688 0.41228754769159204 0.18837092393252688 0.0533468338449723 -0.9854938264681914
3040000000.0 -0.7747296772164077 0.25359481034695647 1.4082604521384778 0.7981149498932417 1.4082604521384778 0.7981149498932415 2.72379525086559 -3.318004217924255
3050000000.0 -0.13588108900873838 0.1933337780779777 0.6450840109820366 -1.1124944443930007 0.6450840109820368 -1.1124944443930007 0.10800714542591369 -0.26043294621835256
3060000000.0 0.20610689529952309 -0.11837405145301444 1.2154031953957434 0.6025768461651154 1.2154031953957434 0.6025768461651153 1.1225503390884715 -0.6938469836365542
3070000000.0 -1.181976614611086 0.15422718590242845 0.35462450037273935 0.6255510270907461 0.35462450037273935 0.6255510270907464 0.7510800785990625 -0.47670083632819926
3080000000.0 2.7609732134150486 -2.481213195690823 0.7456440520234963 3.857967838180482 0.7456440520234966 3.857967838180482 -4.6416063625077495 -1.2208807212944166
3090000000.0 0.25918385319434056 -0.22026560088631647 0.7662825951055334 -1.1354987353448498 0.7662825951055339 -1.1354987353448498 -1.2043933501969057 -0.24244996588709888
3100000000.0 0.2592735030542471 -0.35924216025075717 -0.6797961872559162 0.09532378501377115 -0.6797961872559162 0.09532378501377128 -0.06827911632795503 0.08667257564650183
3110000000.0 0.11540835217705986 0.062062786204731796 -0.8746678123452898 -1.1195127868461778 -0.8746678123452897 -1.1195127868461776 4.03510164457915 4.493138286274422
3120000000.0 -1.6377584269351422 1.448717937402706 -1.819100970608883 -0.8642280030622885 -1.8191009706088828 -0.8642280030622886 0.35407536186459476 -2.519023606745158
3130000000.0 1.1245345276482122 -0.4353526378252297 0.3031820537358034 0.9244907330211317 0.30318205373580354 0.9244907330211318 -0.4669019757663406 0.401244167988714
3140000000.0 -0.5805971902465548 0.867459831806423 -3.789457741778321 2.3904613490088584 -3.78945774177832 2.390461349008859 -17.79943627164071 -0.8928708930301568
3150000000.0 0.4281243585662089 0.21200123474068955 -0.30255991947882743 0.48402890150897154 -0.30255991947882727 0.4840289015089713 -1.5080925761400272 -0.004232745782066505
3160000000.0 0.10551594564984024 -0.18302164058939707 0.5127228616521567 0.28593808034826285 0.5127228616521569 0.28593808034826285 1.0848041890912328 -1.1307503105920704
3170000000.0 0.6811062763942792 -0.8262570674568395 0.8017596384851087 0.6708683515165031 0.8017596384851088 0.670868351516503 -0.14224014141550723 -0.1976903675331392
3180000000.0 1.230410841296267 3.0657761227022395 6.696197785782004 5.450555311371254 6.696197785782002 5.450555311371254 33.58079836452028 1.6952365759701902
3190000000.0 -0.14295715725346003 -0.0007835888180544037 -0.4565364972048591 0.003113050484532137 -0.456536497204859 0.003113050484532137 0.19800673021932874 -0.5491509849603934
3200000000.0 -0.4635593574116494 0.22386658823157102 0.25410163683513187 -0.2774122690078855 0.25410163683513187 -0.2774122690078855 0.6958570551033684 -0.4721264171332722
3210000000.0 0.039427915613654996 -0.2564977769608946 -0.14642261353296637 -0.4461423555120728 -0.14642261353296632 -0.4461423555120726 -0.3294199376559215 -1.296947232363558
3220000000.0 1.6324244826130059 -0.9552838826740313 -2.1770832299893472 0.4501721332523525 -2.1770832299893472 0.450172133252353 0.48957448578213913 1.651282636035237
3230000000.0 0.24860936074399909 -0.3195169737916408 0.5240577082989493 0.7869622755950649 0.5240577082989493 0.7869622755950649 -1.315447932646042 -1.8864592322444
3240000000.0 0.08885682916128218 -0.16066358516014684 0.6819685798642641 -0.014604744647538258 0.681968579864264 -0.014604744647538258 0.5339848664282895 -0.16729591349292872
3250000000.0 0.30520793279337965 0.04865872313808023 -0.5760979505453914 0.14467270656985856 -0.5760979505453914 0.14467270656985856 -0.5902857596970272 -0.8783154964746882
3260000000.0 -0.11497868535062816 0.22502599416755134 -0.5288116888400608 0.40061518223021975 -0.5288116888400609 0.4006151822302199 0.2843168388829366 -0.6495729049891369
3270000000.0 0.07280016289031117 -0.0014150319290458166 0.04520004517666043 0.46294871545755917 0.04520004517666043 0.46294871545755917 -0.531035683613645 1.9846214966418387
3280000000.0 3.528387547292207 -3.8641091978240607 6.3480773323559845 2.2361231795679677 6.348077332355983 2.2361231795679672 2.44088786104653 8.413699570208607
3290000000.0 -1.6998139045970286 -1.7205344547572352 -0.5782172174556721 0.4141867336603546 -0.5782172174556723 0.41418673366035474 0.9101111396149144 -0.4233487300175803
3300000000.0 0.025749929614969636 0.30739331054471863 -0.27381285998873517 0.31699474232539104 -0.27381285998873506 0.31699474232539093 0.41299681424229817 -0.3096714007630939
3310000000.0 0.1646342925498625 -0.15826569852028888 -0.6321450038747584 0.5247604788233585 -0.6321450038747584 0.5247604788233587 1.0605519361836286 -2.027570430496789
3320000000.0 0.12913983636306048 0.12136881226115227 -0.5506917317075507 0.5498566639189779 -0.5506917317075508 0.549856663918978 -0.5340028342715015 0.8999871385225076
3330000000.0 0.32712762365487824 0.38415093743481177 -0.27209613321753207 -0.8624376883812451 -0.27209613321753207 -0.8624376883812455 0.1398479354341069 -0.06746162469874861
3340000000.0 -0.4994323914869462 0.6126480762363525 0.5464063086471309 -1.6104129568619912 0.5464063086471318 -1.6104129568619912 2.0415461543626705 0.39794927679866055
3350000000.0 0.8521324410888589 0.1819892152265787 1.0695898266152457 0.34032983155055885 1.0695898266152457 0.34032983155055874 -1.2663466527977403 0.9087194255834733
3360000000.0 0.013882354192099933 0.5123402120006347 1.043931052590448 -1.7592239662245837 1.043931052590448 -1.7592239662245834 -0.46205932180930565 2.536997466319497
3370000000.0 0.08058992568389502 -0.679975596904298 0.2886646901322575 0.8513458395813531 0.2886646901322573 0.8513458395813532 -0.47377424183627836 -1.3514048020386977
3380000000.0 0.6680883337462307 0.42604000151336857 -0.5046269423653656 -0.8905791485744391 -0.5046269423653658 -0.8905791485744392 0.04553889024317212 0.2896092653310709
3390000000.0 -0.02141840861284472 -0.30040015237169204 -0.11645725335392129 -0.4406016459834382 -0.11645725335392129 -0.44060164598343826 -0.8290431822042339 -0.3443792019859639
3400000000.0 -0.020633103633309557 -1.3104141450401432 -1.9233928903632476 0.07626194526128369 -1.9233928903632478 0.07626194526128391 -1.5505245205913387 3.7722881201410754
3410000000.0 -0.016174973879017465 -0.0063737814055981334 -0.02374379920283538 -0.5652658746795683 -0.02374379920283532 -0.5652658746795686 -0.2763269089626262 -0.2316269232995474
3420000000.0 -0.2874596578821432 1.4874311467991639 0.2516521239931154 -1.143338781898101 0.2516521239931148 -1.1433387818981005 -0.31999706838028175 0.456927082207771
3430000000.0 0.07200500773635499 -0.6532866072810672 -1.5033499588625758 0.6753190184500245 -1.5033499588625763 0.6753190184500248 0.09547404503484769 1.9547257126457858
3440000000.0 0.32048587580517274 0.15580875496232977 1.2762163823641626 0.1632602101568137 1.2762163823641628 0.16326021015681386 3.5179805904765593 -1.3602802492859194
3450000000.0 -0.6727380785949852 0.290263105198873 1.2691522483301032 0.11196558882142006 1.2691522483301032 0.11196558882142006 0.450108776708394 -0.88314910763563
3460000000.0 -0.04386491995516173 -1.5151960300914413 -1.5764055540542905 -0.9370398762762907 -1.5764055540542907 -0.9370398762762912 -0.2526745303533884 0.4002078732108425
3470000000.0 0.0018467303319100736 0.12334642788621303 -0.5803342645601399 -0.638030353783696 -0.5803342645601399 -0.638030353783696 5.696070084362971 0.6521046904806114
3480000000.0 1.1003502046742395 -0.2569872153967898 2.1660885616669416 -0.4803161401606966 2.1660885616669416 -0.4803161401606972 2.953269640425465 -0.36159122155886436
3490000000.0 0.15209310668094572 -0.18602425197526018 1.1727344529676136 0.8328874354434465 1.1727344529676136 0.8328874354434467 -5.6676794744376044 6.482997606309637
3500000000.0 0.04087971973419613 0.9767393309820989 -1.7673334575806974 0.3151803531745214 -1.7673334575806972 0.3151803531745213 -0.8610402728855847 -2.6473694047559184
3510000000.0 0.5488417944211383 -0.8607055856335831 -0.3054502226135106 3.2731869094971517 -0.3054502226135107 3.2731869094971504 -1.9433548901357744 -8.723971299130472
3520000000.0 1.8577209151100593 0.9597774878161314 -0.40780875648463505 0.6813357473863734 -0.40780875648463494 0.681335747386373 -2.078423588402189 -0.018126740784748296
3530000000.0 -0.27941579921509585 -0.5345788164384787 -0.9204103968473986 0.23966115813368974 -0.9204103968473989 0.23966115813368982 -0.7151744921609912 0.8792382771916104
3540000000.0 0.2849873990200964 0.47728493980871584 1.0461470907631414 0.3741563214891483 1.0461470907631412 0.37415632148914835 0.3558077144807302 -1.3159763673883278
3550000000.0 1.2731647217838413 -0.6847656732363927 1.8223605380526868 0.6848681778003066 1.8223605380526864 0.6848681778003064 0.6077986811454934 4.903871036518312
3560000000.0 -0.23772450674867207 0.0928609526957748 0.4443535167395474 0.6073537804773911 0.4443535167395474 0.6073537804773909 1.9113034982826609 -0.9353076958388211
3570000000.0 -0.5884255063104962 0.06899192733381598 0.3232068904271927 -0.5718132086355646 0.3232068904271927 -0.5718132086355645 -0.1631283087417048 -1.1845096727813933
3580000000.0 -0.35104998600177456 0.2407661041287034 -0.41440375870828594 -0.06307622316149422 -0.41440375870828594 -0.06307622316149435 1.0477476837867723 0.016717003577854217
3590000000.0 -0.4995946622445343 -0.22003572242095126 -0.3583666379761465 0.6391475502559986 -0.3583666379761465 0.6391475502559983 1.0700563759648878 1.078361647315359
3600000000.0 -0.029994462134030564 0.574757731338633 0.3442974313693188 1.4371453240932708 0.34429743136931856 1.4371453240932703 -0.29903513236958584 3.1962883687323886
3610000000.0 0.09156504139430932 0.44441646270582236 -0.6599259093457988 1.4417386187802164 -0.6599259093457988 1.4417386187802164 -2.1530497141809484 0.07622090665291026
3620000000.0 -1.0881789887783229 0.33209017224357024 -0.11338590363146916 -1.2761077976738382 -0.11338590363146925 -1.2761077976738382 -4.747555814376136 -2.389288854601189
3630000000.0 0.3754172999339269 0.10769201462493601 -0.531816273751258 0.26966133609268833 -0.531816273751258 0.26966133609268833 -1.7458272247379758 0.42835647665649657
3640000000.0 0.40067070525343706 -0.027868911258540713 -0.2508681809420926 -0.3329221425129821 -0.2508681809420926 -0.33292214251298186 1.0190355015364876 -0.6230701696820792
3650000000.0 -1.1456010406410086 0.05713186118210872 -0.8610814539032674 -0.1972241573119354 -0.8610814539032674 -0.19722415731193535 -0.24931815706440202 -0.4478351989115717
3660000000.0 -0.9975243307701986 0.22055121545701567 -0.5447987545986474 0.1312301309875724 -0.5447987545986475 0.13123013098757244 -1.1077461899165535 -0.3984789375382468
3670000000.0 0.2302054463995314 -0.3839343985202901 0.07524636945922836 0.9244383882708022 0.07524636945922845 0.9244383882708022 -0.7905437907996591 -0.24447086287649222
3680000000.0 -0.1844328540502806 -0.040110251804251346 -1.059753193863707 -0.16974514253159226 -1.0597531938637073 -0.16974514253159237 -2.2641074724818875 -0.11310555105175879
3690000000.0 -0.2674851309708971 -0.22042848079450156 -0.10721114776179745 -0.17946763323528064 -0.10721114776179742 -0.17946763323528056 0.9979301630850358 0.054881506392443866
3700000000.0 -0.025053007475745005 0.03358707017896429 0.24377039934491976 -0.17408767359586158 0.24377039934491976 -0.1740876735958615 -0.25818639075896976 0.8241504177117009
3710000000.0 0.22722201817623489 -0.4624594405492899 2.6530956229850218 -0.38367165752053056 2.6530956229850218 -0.38367165752053056 10.034166672592178 9.621038464091885
3720000000.0 -0.12598351101575744 -0.08712342440621823 -0.3624236160442083 -0.19466381053034926 -0.36242361604420825 -0.19466381053034928 0.6781568688761273 -0.5327888771179137
3730000000.0 2.7032026271783733 2.8580439321243114 -5.8973244663591 -0.4311234042391995 -5.897324466359102 -0.4311234042391979 5.940851741510174 -5.365901405070025
3740000000.0 -4.541065018947994 0.7720551539016787 -1.7939319154052265 -4.253308980503274 -1.7939319154052256 -4.253308980503274 2.9634669416819124 -2.8653690678153865
3750000000.0 -0.07583007999944075 -0.2020176206788925 -0.20330148224660105 0.4440630297496158 -0.20330148224660113 0.4440630297496158 0.941563835713144 -1.5463181168916915
3760000000.0 0.29080193001783133 -0.2479748487785765 0.8588281926970949 1.1497442370341358 0.8588281926970949 1.1497442370341355 -2.191705657167671 -2.1542149840130396
3770000000.0 -0.626379358595625 -0.5089251111096015 -0.41562670793431206 0.81508451456314 -0.41562670793431233 0.81508451456314 0.5617708411760521 -0.5970168448440671
3780000000.0 0.7685124594662924 0.035168685595439064 -0.8299506842913543 0.5236895687550283 -0.8299506842913543 0.5236895687550283 -1.03498347134623 -0.7965623047366899
3790000000.0 -0.469563759712498 -0.10614732627209161 -0.04696622899198258 -0.8180314044887449 -0.04696622899198258 -0.8180314044887451 -1.350269767593412 -0.7220296735588119
3800000000.0 0.2341775846524915 0.42466384175860583 0.6774795853426298 -0.8248588338603856 0.6774795853426298 -0.8248588338603858 -2.3155470489240906 -0.6918844492185858
3810000000.0 1.2643240739459751 -0.25882823674671285 -0.8873728096364323 0.9657096902350635 -0.8873728096364328 0.9657096902350639 2.6989547947904295 -2.739688535846495
3820000000.0 -0.16063652689701602 -0.005265393877606217 -0.16816006690382773 0.47982564314960763 -0.1681600669038278 0.4798256431496077 1.8133618596157404 -1.1368212130244058
3830000000.0 -0.33219846087952004 0.22254298003806922 0.33365348290941466 -0.4523412137869994 0.3336534829094146 -0.4523412137869994 -0.7157338572990953 -0.3118848550632478
3840000000.0 0.5906080317595075 -0.012514581093020574 0.5842634617528246 0.6416667818221132 0.5842634617528242 0.6416667818221128 2.107824823373724 -0.2500109575565726
3850000000.0 0.9119198775577402 -0.13738232612942902 0.6951051338539298 -0.3164515521812559 0.6951051338539298 -0.3164515521812561 -0.3348202537375437 2.439997689129547
3860000000.0 -0.2222763668455196 -0.13672566078509565 -0.11547923901494879 -0.5874230754573452 -0.1154792390149487 -0.5874230754573452 0.8077095301598015 -0.24139392933651888
3870000000.0 -0.25048029012435424 0.45614771238338525 -0.012578394936261958 -0.8691391633362574 -0.012578394936262009 -0.8691391633362575 1.880059150183406 1.2067688376340213
3880000000.0 -0.657594988209854 -0.0695155546134773 -0.6320095844180026 -0.4552056577525399 -0.6320095844180026 -0.4552056577525399 0.29833089936321455 -3.9438353280009726
3890000000.0 -0.6211669726985334 -0.3452718552510024 -0.6215130122826549 0.0853119960492143 -0.6215130122826552 0.08531199604921433 1.1948283906050055 0.1965442670143005
3900000000.0 -0.5522372094368412 0.5578025962898345 0.6906883341942159 0.4335021152549702 0.6906883341942158 0.4335021152549703 1.434096917005679 -0.8064559452887221
3910000000.0 -0.07331864023749325 -0.09741959110322287 -0.5331634581780419 0.09588867912606251 -0.533163458178042 0.09588867912606248 2.963925068000219 -0.054772401654945346
3920000000.0 -0.16962339748969313 0.48542591347054675 1.1918988031177806 0.4118158055878828 1.1918988031177806 0.4118158055878826 0.7636498324747529 0.24683201912077024
3930000000.0 -1.3463478669977516 -0.02909384358218481 0.5180169748326523 -0.0920136427663024 0.5180169748326522 -0.09201364276630247 0.9014314321773431 0.3595063656972579
3940000000.0 -0.02406682238992168 -0.18570541233870153 -0.10613500012538606 0.5244006010704713 -0.10613500012538618 0.5244006010704714 0.9047265918183579 0.9685554120439119
3950000000.0 -0.12363298953749174 -0.2974511305856388 -0.39230632964800194 0.3140765421925387 -0.39230632964800216 0.3140765421925389 -1.3228371555583787 0.3962549696533968
3960000000.0 -0.5719387651210105 -0.012271449512923933 -0.42444788956236806 0.08268184621588537 -0.42444788956236806 0.08268184621588537 -0.5479870698163166 0.5612739954906922
3970000000.0 0.2591092457953435 0.2171427884445677 -0.3774749390338545 -0.5316919206097039 -0.37747493903385454 -0.531691920609704 -1.5488630875622085 0.8536137838804724
3980000000.0 0.3426349631781327 -0.18325546515191266 0.5719160937797977 -1.5269694851229436 0.5719160937797977 -1.5269694851229443 -1.9370233769391367 -2.5269753957056733
3990000000.0 0.5412145214269788 0.057104734463145235 3.637889155767341 1.7781116878964265 3.637889155767342 1.778111687896426 8.271973685186154 4.376128474311784
4000000000.0 -2.2530014805312666 0.21397844883875597 1.0702640680819802 2.2324381523021466 1.0702640680819808 2.2324381523021466 2.4754474193941247 -3.7831438421573185
